Time [s], Analyzer Name, Decoded Protocol Result
0.115820500000000,HDMI CEC,Start Sequence
0.120322500000000,HDMI CEC,Header SRC='5' (0x5) (AudioSystem), DST='15' (0xF) (Unreg/Bcast)
0.139528500000000,HDMI CEC,End of Message = 0
0.141929000000000,HDMI CEC,Acknowledgment = 0
0.144330000000000,HDMI CEC,Opcode '132' (0x84) (ReportPhysicalAddress)
0.163535500000000,HDMI CEC,End of Message = 0
0.165936500000000,HDMI CEC,Acknowledgment = 0
0.187543000000000,HDMI CEC,End of Message = 0
0.189943500000000,HDMI CEC,Acknowledgment = 0
0.211550500000000,HDMI CEC,End of Message = 0
0.213951000000000,HDMI CEC,Acknowledgment = 0
0.235557500000000,HDMI CEC,End of Message = 1
0.237958500000000,HDMI CEC,Acknowledgment = 0
0.253999500000000,HDMI CEC,Start Sequence
0.258468500000000,HDMI CEC,Header SRC='0' (0x0) (TV), DST='5' (0x5) (AudioSystem)
0.277537000000000,HDMI CEC,End of Message = 0
0.279920500000000,HDMI CEC,Acknowledgment = 1
0.282304500000000,HDMI CEC,Opcode } (0x7D) (GiveSystemAudioModeStatus)
0.301377500000000,HDMI CEC,End of Message = 1
0.303761000000000,HDMI CEC,Acknowledgment = 1
0.315267000000000,HDMI CEC,Start Sequence
0.319769000000000,HDMI CEC,Header SRC='5' (0x5) (AudioSystem), DST='0' (0x0) (TV)
0.338975000000000,HDMI CEC,End of Message = 0
0.341375500000000,HDMI CEC,Acknowledgment = 1
0.343776500000000,HDMI CEC,Opcode r (0x72) (SetSystemAudioMode)
0.362982000000000,HDMI CEC,End of Message = 0
0.365383000000000,HDMI CEC,Acknowledgment = 1
0.386989500000000,HDMI CEC,End of Message = 1
0.389390000000000,HDMI CEC,Acknowledgment = 1
0.405294500000000,HDMI CEC,Start Sequence
0.409796500000000,HDMI CEC,Header SRC='5' (0x5) (AudioSystem), DST='15' (0xF) (Unreg/Bcast)
0.429002000000000,HDMI CEC,End of Message = 0
0.431403000000000,HDMI CEC,Acknowledgment = 0
0.433803500000000,HDMI CEC,Opcode r (0x72) (SetSystemAudioMode)
0.453009500000000,HDMI CEC,End of Message = 0
0.455410000000000,HDMI CEC,Acknowledgment = 0
0.477017000000000,HDMI CEC,End of Message = 1
0.479417500000000,HDMI CEC,Acknowledgment = 0
0.495322000000000,HDMI CEC,Start Sequence
0.499823500000000,HDMI CEC,Header SRC='5' (0x5) (AudioSystem), DST='0' (0x0) (TV)
0.519029500000000,HDMI CEC,End of Message = 0
0.521430000000000,HDMI CEC,Acknowledgment = 1
0.523831000000000,HDMI CEC,Opcode '143' (0x8F) (GiveDevicePowerStatus)
0.543036500000000,HDMI CEC,End of Message = 1
0.545437500000000,HDMI CEC,Acknowledgment = 1
0.560148000000000,HDMI CEC,Start Sequence
0.564614500000000,HDMI CEC,Header SRC='0' (0x0) (TV), DST='5' (0x5) (AudioSystem)
0.583690500000000,HDMI CEC,End of Message = 0
0.586075000000000,HDMI CEC,Acknowledgment = 1
0.588459500000000,HDMI CEC,Opcode '144' (0x90) (ReportPowerStatus)
0.607534000000000,HDMI CEC,End of Message = 0
0.609919000000000,HDMI CEC,Acknowledgment = 1
0.631372500000000,HDMI CEC,End of Message = 1
0.633756000000000,HDMI CEC,Acknowledgment = 1
0.645362500000000,HDMI CEC,Start Sequence
0.649864000000000,HDMI CEC,Header SRC='5' (0x5) (AudioSystem), DST='0' (0x0) (TV)
0.669070000000000,HDMI CEC,End of Message = 0
0.671470500000000,HDMI CEC,Acknowledgment = 1
0.673871500000000,HDMI CEC,Opcode '192' (0xC0) (Invalid)
0.693077000000000,HDMI CEC,End of Message = 1
0.695478000000000,HDMI CEC,Acknowledgment = 1
0.710187500000000,HDMI CEC,Start Sequence
0.714655500000000,HDMI CEC,Header SRC='0' (0x0) (TV), DST='5' (0x5) (AudioSystem)
0.733723000000000,HDMI CEC,End of Message = 0
0.736106500000000,HDMI CEC,Acknowledgment = 1
0.738489500000000,HDMI CEC,Opcode '193' (0xC1) (Invalid)
0.757559000000000,HDMI CEC,End of Message = 1
0.759942500000000,HDMI CEC,Acknowledgment = 1
1.135587500000000,HDMI CEC,Start Sequence
1.140057500000000,HDMI CEC,Header SRC='0' (0x0) (TV), DST='5' (0x5) (AudioSystem)
1.159134500000000,HDMI CEC,End of Message = 0
1.161519000000000,HDMI CEC,Acknowledgment = 1
1.163903500000000,HDMI CEC,Opcode '143' (0x8F) (GiveDevicePowerStatus)
1.182979000000000,HDMI CEC,End of Message = 1
1.185363500000000,HDMI CEC,Acknowledgment = 1
1.195469000000000,HDMI CEC,Start Sequence
1.199971000000000,HDMI CEC,Header SRC='5' (0x5) (AudioSystem), DST='0' (0x0) (TV)
1.219176500000000,HDMI CEC,End of Message = 0
1.221577500000000,HDMI CEC,Acknowledgment = 1
1.223978500000000,HDMI CEC,Opcode '144' (0x90) (ReportPowerStatus)
1.243184000000000,HDMI CEC,End of Message = 0
1.245584500000000,HDMI CEC,Acknowledgment = 1
1.267191500000000,HDMI CEC,End of Message = 1
1.269592000000000,HDMI CEC,Acknowledgment = 1
2.135864500000000,HDMI CEC,Start Sequence
2.140334000000000,HDMI CEC,Header SRC='0' (0x0) (TV), DST='5' (0x5) (AudioSystem)
2.159405500000000,HDMI CEC,End of Message = 0
2.161788000000000,HDMI CEC,Acknowledgment = 1
2.164171000000000,HDMI CEC,Opcode F (0x46) (GiveOsdName)
2.183242500000000,HDMI CEC,End of Message = 1
2.185626500000000,HDMI CEC,Acknowledgment = 1
2.195832500000000,HDMI CEC,Start Sequence
2.200334500000000,HDMI CEC,Header SRC='5' (0x5) (AudioSystem), DST='0' (0x0) (TV)
2.219540000000000,HDMI CEC,End of Message = 0
2.221940500000000,HDMI CEC,Acknowledgment = 1
2.224341500000000,HDMI CEC,Opcode G (0x47) (SetOsdName)
2.243547500000000,HDMI CEC,End of Message = 0
2.245948000000000,HDMI CEC,Acknowledgment = 1
2.267554500000000,HDMI CEC,End of Message = 0
2.269955500000000,HDMI CEC,Acknowledgment = 1
2.291562000000000,HDMI CEC,End of Message = 0
2.293962500000000,HDMI CEC,Acknowledgment = 1
2.315569000000000,HDMI CEC,End of Message = 0
2.317970000000000,HDMI CEC,Acknowledgment = 1
2.339576500000000,HDMI CEC,End of Message = 0
2.341977000000000,HDMI CEC,Acknowledgment = 1
2.363584000000000,HDMI CEC,End of Message = 0
2.365984500000000,HDMI CEC,Acknowledgment = 1
2.387591000000000,HDMI CEC,End of Message = 1
2.389992000000000,HDMI CEC,Acknowledgment = 1
3.136606500000000,HDMI CEC,Start Sequence
3.141075500000000,HDMI CEC,Header SRC='0' (0x0) (TV), DST='1' (0x1) (Recorder1)
3.160152000000000,HDMI CEC,End of Message = 1
3.162537500000000,HDMI CEC,Acknowledgment = 0
3.172081500000000,HDMI CEC,Start Sequence
3.176553500000000,HDMI CEC,Header SRC='0' (0x0) (TV), DST='1' (0x1) (Recorder1)
3.195631500000000,HDMI CEC,End of Message = 1
3.198016000000000,HDMI CEC,Acknowledgment = 0
5.112894000000000,HDMI CEC,Start Sequence
5.117364500000000,HDMI CEC,Header SRC='0' (0x0) (TV), DST='2' (0x2) (Recorder2)
5.136430500000000,HDMI CEC,End of Message = 1
5.138814000000000,HDMI CEC,Acknowledgment = 0
5.148347500000000,HDMI CEC,Start Sequence
5.152813500000000,HDMI CEC,Header SRC='0' (0x0) (TV), DST='2' (0x2) (Recorder2)
5.171878000000000,HDMI CEC,End of Message = 1
5.174261000000000,HDMI CEC,Acknowledgment = 0
6.112740000000000,HDMI CEC,Start Sequence
6.117208500000000,HDMI CEC,Header SRC='0' (0x0) (TV), DST='5' (0x5) (AudioSystem)
6.136288500000000,HDMI CEC,End of Message = 0
6.138675000000000,HDMI CEC,Acknowledgment = 1
6.141062000000000,HDMI CEC,Opcode '164' (0xA4) (Invalid)
6.160142500000000,HDMI CEC,End of Message = 0
6.162526500000000,HDMI CEC,Acknowledgment = 1
6.183988000000000,HDMI CEC,End of Message = 0
6.186372500000000,HDMI CEC,Acknowledgment = 1
6.207837500000000,HDMI CEC,End of Message = 0
6.210222500000000,HDMI CEC,Acknowledgment = 1
6.231686000000000,HDMI CEC,End of Message = 0
6.234070500000000,HDMI CEC,Acknowledgment = 1
6.255532500000000,HDMI CEC,End of Message = 1
6.257916000000000,HDMI CEC,Acknowledgment = 1
7.113233500000000,HDMI CEC,Start Sequence
7.117703000000000,HDMI CEC,Header SRC='0' (0x0) (TV), DST='5' (0x5) (AudioSystem)
7.136769500000000,HDMI CEC,End of Message = 0
7.139153500000000,HDMI CEC,Acknowledgment = 1
7.141537000000000,HDMI CEC,Opcode '164' (0xA4) (Invalid)
7.160596000000000,HDMI CEC,End of Message = 0
7.162978000000000,HDMI CEC,Acknowledgment = 1
7.184428500000000,HDMI CEC,End of Message = 0
7.186811500000000,HDMI CEC,Acknowledgment = 1
7.208271000000000,HDMI CEC,End of Message = 0
7.210656000000000,HDMI CEC,Acknowledgment = 1
7.232110500000000,HDMI CEC,End of Message = 0
7.234494000000000,HDMI CEC,Acknowledgment = 1
7.255949000000000,HDMI CEC,End of Message = 1
7.258333000000000,HDMI CEC,Acknowledgment = 1
8.113708000000001,HDMI CEC,Start Sequence
8.118176000000000,HDMI CEC,Header SRC='0' (0x0) (TV), DST='5' (0x5) (AudioSystem)
8.137244000000001,HDMI CEC,End of Message = 0
8.139627000000001,HDMI CEC,Acknowledgment = 1
8.142010000000001,HDMI CEC,Opcode '164' (0xA4) (Invalid)
8.161077499999999,HDMI CEC,End of Message = 0
8.163462000000001,HDMI CEC,Acknowledgment = 1
8.184913500000000,HDMI CEC,End of Message = 0
8.187296500000000,HDMI CEC,Acknowledgment = 1
8.208746500000000,HDMI CEC,End of Message = 0
8.211130000000001,HDMI CEC,Acknowledgment = 1
8.232574000000000,HDMI CEC,End of Message = 0
8.234957500000000,HDMI CEC,Acknowledgment = 1
8.256403000000001,HDMI CEC,End of Message = 1
8.258785500000000,HDMI CEC,Acknowledgment = 1
9.113727500000000,HDMI CEC,Start Sequence
9.118194500000000,HDMI CEC,Header SRC='0' (0x0) (TV), DST='5' (0x5) (AudioSystem)
9.137251500000000,HDMI CEC,End of Message = 0
9.139633999999999,HDMI CEC,Acknowledgment = 1
9.142015000000001,HDMI CEC,Opcode '164' (0xA4) (Invalid)
9.161076000000000,HDMI CEC,End of Message = 0
9.163459000000000,HDMI CEC,Acknowledgment = 1
9.184910500000001,HDMI CEC,End of Message = 0
9.187293499999999,HDMI CEC,Acknowledgment = 1
9.208741000000000,HDMI CEC,End of Message = 1
9.211124000000000,HDMI CEC,Acknowledgment = 1
10.114098000000000,HDMI CEC,Start Sequence
10.118565000000000,HDMI CEC,Header SRC='0' (0x0) (TV), DST='3' (0x3) (Tuner1)
10.137632000000000,HDMI CEC,End of Message = 1
10.140015500000001,HDMI CEC,Acknowledgment = 0
10.149550000000000,HDMI CEC,Start Sequence
10.154019999999999,HDMI CEC,Header SRC='0' (0x0) (TV), DST='3' (0x3) (Tuner1)
10.173088000000000,HDMI CEC,End of Message = 1
10.175471500000000,HDMI CEC,Acknowledgment = 0
11.114540500000000,HDMI CEC,Start Sequence
11.119009500000001,HDMI CEC,Header SRC='0' (0x0) (TV), DST='4' (0x4) (Player1)
11.138075000000001,HDMI CEC,End of Message = 1
11.140458499999999,HDMI CEC,Acknowledgment = 0
11.149993500000001,HDMI CEC,Start Sequence
11.154462499999999,HDMI CEC,Header SRC='0' (0x0) (TV), DST='4' (0x4) (Player1)
11.173537500000000,HDMI CEC,End of Message = 1
11.175921000000001,HDMI CEC,Acknowledgment = 0
11.232902500000000,HDMI CEC,Start Sequence
11.237372000000001,HDMI CEC,Header SRC='0' (0x0) (TV), DST='5' (0x5) (AudioSystem)
11.256437999999999,HDMI CEC,End of Message = 0
11.258821500000000,HDMI CEC,Acknowledgment = 1
11.261205500000001,HDMI CEC,Opcode '194' (0xC2) (Invalid)
11.280275500000000,HDMI CEC,End of Message = 1
11.282658500000000,HDMI CEC,Acknowledgment = 1
12.028549000000000,HDMI CEC,Start Sequence
12.033015499999999,HDMI CEC,Header SRC='0' (0x0) (TV), DST='5' (0x5) (AudioSystem)
12.052078000000000,HDMI CEC,End of Message = 0
12.054461000000000,HDMI CEC,Acknowledgment = 1
12.056844500000000,HDMI CEC,Opcode '195' (0xC3) (Invalid)
12.075905000000001,HDMI CEC,End of Message = 1
12.078287500000000,HDMI CEC,Acknowledgment = 1
12.088792500000000,HDMI CEC,Start Sequence
12.093294500000001,HDMI CEC,Header SRC='5' (0x5) (AudioSystem), DST='0' (0x0) (TV)
12.112500499999999,HDMI CEC,End of Message = 0
12.114901000000000,HDMI CEC,Acknowledgment = 1
12.117302000000000,HDMI CEC,Opcode '192' (0xC0) (Invalid)
12.136507500000000,HDMI CEC,End of Message = 1
12.138908499999999,HDMI CEC,Acknowledgment = 1
12.646807500000000,HDMI CEC,Start Sequence
12.651272000000001,HDMI CEC,Header SRC='0' (0x0) (TV), DST='5' (0x5) (AudioSystem)
12.670327000000000,HDMI CEC,End of Message = 0
12.672708500000001,HDMI CEC,Acknowledgment = 1
12.675089500000000,HDMI CEC,Opcode '193' (0xC1) (Invalid)
12.694141999999999,HDMI CEC,End of Message = 1
12.696524000000000,HDMI CEC,Acknowledgment = 1
12.716927999999999,HDMI CEC,Start Sequence
12.721392500000000,HDMI CEC,Header SRC='0' (0x0) (TV), DST='6' (0x6) (Tuner2)
12.740442500000000,HDMI CEC,End of Message = 1
12.742823500000000,HDMI CEC,Acknowledgment = 0
12.752352000000000,HDMI CEC,Start Sequence
12.756818000000001,HDMI CEC,Header SRC='0' (0x0) (TV), DST='6' (0x6) (Tuner2)
12.775886000000000,HDMI CEC,End of Message = 1
12.778269000000000,HDMI CEC,Acknowledgment = 0
13.120751500000001,HDMI CEC,Start Sequence
13.125221500000000,HDMI CEC,Header SRC='0' (0x0) (TV), DST='7' (0x7) (Tuner3)
13.144299999999999,HDMI CEC,End of Message = 1
13.146685000000000,HDMI CEC,Acknowledgment = 0
13.156224999999999,HDMI CEC,Start Sequence
13.160694500000000,HDMI CEC,Header SRC='0' (0x0) (TV), DST='7' (0x7) (Tuner3)
13.179765000000000,HDMI CEC,End of Message = 1
13.182148500000000,HDMI CEC,Acknowledgment = 0
14.121043999999999,HDMI CEC,Start Sequence
14.125509500000000,HDMI CEC,Header SRC='0' (0x0) (TV), DST='8' (0x8) (Player2)
14.144567500000001,HDMI CEC,End of Message = 1
14.146950500000001,HDMI CEC,Acknowledgment = 0
14.156482499999999,HDMI CEC,Start Sequence
14.160950000000000,HDMI CEC,Header SRC='0' (0x0) (TV), DST='8' (0x8) (Player2)
14.180007000000000,HDMI CEC,End of Message = 1
14.182389499999999,HDMI CEC,Acknowledgment = 0
15.900015000000000,HDMI CEC,Start Sequence
15.904484999999999,HDMI CEC,Header SRC='0' (0x0) (TV), DST=\t (0x9) (Recorder3)
15.923560500000001,HDMI CEC,End of Message = 1
15.925945000000000,HDMI CEC,Acknowledgment = 0
15.935483500000000,HDMI CEC,Start Sequence
15.939953500000000,HDMI CEC,Header SRC='0' (0x0) (TV), DST=\t (0x9) (Recorder3)
15.959025499999999,HDMI CEC,End of Message = 1
15.961409500000000,HDMI CEC,Acknowledgment = 0
16.901524500000001,HDMI CEC,Start Sequence
16.905993500000001,HDMI CEC,Header SRC='0' (0x0) (TV), DST=\n (0xA) (Tuner4)
16.925061500000002,HDMI CEC,End of Message = 1
16.927444500000000,HDMI CEC,Acknowledgment = 0
16.936976500000000,HDMI CEC,Start Sequence
16.941442500000001,HDMI CEC,Header SRC='0' (0x0) (TV), DST=\n (0xA) (Tuner4)
16.960510500000002,HDMI CEC,End of Message = 1
16.962893999999999,HDMI CEC,Acknowledgment = 0
17.901154500000001,HDMI CEC,Start Sequence
17.905622000000001,HDMI CEC,Header SRC='0' (0x0) (TV), DST='11' (0xB) (Player3)
17.924688000000000,HDMI CEC,End of Message = 1
17.927071500000000,HDMI CEC,Acknowledgment = 0
17.936602000000001,HDMI CEC,Start Sequence
17.941068000000001,HDMI CEC,Header SRC='0' (0x0) (TV), DST='11' (0xB) (Player3)
17.960132999999999,HDMI CEC,End of Message = 1
17.962516000000001,HDMI CEC,Acknowledgment = 0
18.901277499999999,HDMI CEC,Start Sequence
18.905745499999998,HDMI CEC,Header SRC='0' (0x0) (TV), DST='12' (0xC) (Reserved1)
18.924812500000002,HDMI CEC,End of Message = 1
18.927195999999999,HDMI CEC,Acknowledgment = 0
18.936731000000002,HDMI CEC,Start Sequence
18.941198000000000,HDMI CEC,Header SRC='0' (0x0) (TV), DST='12' (0xC) (Reserved1)
18.960261500000001,HDMI CEC,End of Message = 1
18.962644500000000,HDMI CEC,Acknowledgment = 0
19.179746500000000,HDMI CEC,Start Sequence
19.184215999999999,HDMI CEC,Header SRC='0' (0x0) (TV), DST='15' (0xF) (Unreg/Bcast)
19.203285000000001,HDMI CEC,End of Message = 0
19.205667999999999,HDMI CEC,Acknowledgment = 0
19.208050499999999,HDMI CEC,Opcode '130' (0x82) (ActiveSource)
19.227117499999999,HDMI CEC,End of Message = 0
19.229500999999999,HDMI CEC,Acknowledgment = 0
19.250952500000000,HDMI CEC,End of Message = 0
19.253335000000000,HDMI CEC,Acknowledgment = 0
19.274777499999999,HDMI CEC,End of Message = 1
19.277159500000000,HDMI CEC,Acknowledgment = 0
19.901023500000001,HDMI CEC,Start Sequence
19.905491999999999,HDMI CEC,Header SRC='0' (0x0) (TV), DST=\r (0xD) (Reserved2)
19.924561000000001,HDMI CEC,End of Message = 1
19.926945000000000,HDMI CEC,Acknowledgment = 0
19.936488000000001,HDMI CEC,Start Sequence
19.940960000000000,HDMI CEC,Header SRC='0' (0x0) (TV), DST=\r (0xD) (Reserved2)
19.960039500000001,HDMI CEC,End of Message = 1
19.962424500000001,HDMI CEC,Acknowledgment = 0
21.959214500000002,HDMI CEC,Start Sequence
21.963678000000002,HDMI CEC,Header SRC='0' (0x0) (TV), DST='14' (0xE) (FreeUse)
21.982729500000001,HDMI CEC,End of Message = 1
21.985112000000001,HDMI CEC,Acknowledgment = 0
21.994642500000001,HDMI CEC,Start Sequence
21.999109000000001,HDMI CEC,Header SRC='0' (0x0) (TV), DST='14' (0xE) (FreeUse)
22.018168500000002,HDMI CEC,End of Message = 1
22.020551000000001,HDMI CEC,Acknowledgment = 0
